T3A34 64578:194.304   SEGGER J-Link V7.86c Log File
T3A34 64578:194.346   DLL Compiled: Mar  9 2023 16:16:05
T3A34 64578:194.417   Logging started @ 2025-06-20 06:32
T3A34 64578:194.441 - 41914.620ms
T3A34 64578:194.450 JLINK_SetWarnOutHandler(...)
T3A34 64578:194.453 - 0.005ms
T3A34 64578:194.458 JLINK_OpenEx(...)
T3A34 64578:196.100   Firmware: J-Link V9 compiled May  7 2021 16:26:12
T3A34 64578:196.677   Firmware: J-Link V9 compiled May  7 2021 16:26:12
T3A34 64578:196.780   Decompressing FW timestamp took 82 us
T3A34 64578:205.244   Hardware: V9.70
T3A34 64578:205.256   S/N: 150712143
T3A34 64578:205.261   OEM: SEGGER
T3A34 64578:205.266   Feature(s): GDB, RDI, FlashBP, FlashDL, JFlash
T3A34 64578:207.655   TELNET listener socket opened on port 19021
T3A34 64578:211.195   WEBSRV WEBSRV_Init(): Starting webserver thread(s)
T3A34 64578:211.399   WEBSRV Webserver running on local port 19080
T3A34 64578:217.377 - 22.922ms returns "O.K."
T3A34 64578:217.394 JLINK_GetEmuCaps()
T3A34 64578:217.398 - 0.005ms returns 0xB9FF7BBF
T3A34 64578:217.406 JLINK_TIF_GetAvailable(...)
T3A34 64578:217.956 - 0.552ms
T3A34 64578:217.964 JLINK_SetErrorOutHandler(...)
T3A34 64578:217.968 - 0.005ms
T3A34 64578:218.540 JLINK_ExecCommand("ProjectFile = "C:\Project\PUYA\Firmware\PY32F002B1\PY32F002B_Keil_Template\JLinkSettings.ini"", ...). 
T3A34 64578:219.494 - 0.960ms returns 0x00
T3A34 64578:221.333 JLINK_ExecCommand("Device = PY32F002Bx5", ...). 
T3A34 64578:221.496   Flash bank @ 0x08000000: SFL: Parsing sectorization info from ELF file
T3A34 64578:221.503     FlashDevice.SectorInfo[0]: .SectorSize = 0x00001000, .SectorStartAddr = 0x00000000
T3A34 64578:221.509   OFL: Init() present @ offset 0x00000003
T3A34 64578:221.514   OFL: UnInit() present @ offset 0x00000033
T3A34 64578:221.519   OFL: EraseSector() present @ offset 0x00000095
T3A34 64578:221.524   OFL: ProgramPage() present @ offset 0x000000DB
T3A34 64578:221.529   OFL: EraseChip() present @ offset 0x00000041
T3A34 64578:221.534   OFL: BlankCheck() present @ offset 0x000000D7
T3A34 64578:221.539   OFL: Verify() N/A
T3A34 64578:221.546   OFL: SEGGER_FL_Erase() N/A
T3A34 64578:221.551   OFL: SEGGER_OPEN_Erase() N/A
T3A34 64578:221.555   OFL: SEGGER_FL_Program() N/A
T3A34 64578:221.560   OFL: SEGGER_OPEN_Program() N/A
T3A34 64578:221.565   OFL: SEGGER_FL_Read() N/A
T3A34 64578:221.569   OFL: SEGGER_OPEN_Read() N/A
T3A34 64578:221.574   OFL: SEGGER_FL_CalcCRC() N/A
T3A34 64578:221.579   OFL: SEGGER_OPEN_CalcCRC() N/A
T3A34 64578:221.584   OFL: SEGGER_FL_Start() N/A
T3A34 64578:221.588   OFL: SEGGER_OPEN_Start() N/A
T3A34 64578:221.593   OFL: SEGGER_FL_GetFlashInfo() N/A
T3A34 64578:221.598   OFL: SEGGER_OPEN_GetFlashInfo() N/A
T3A34 64578:221.603   OFL: SEGGER_FL_Verify() N/A
T3A34 64578:221.608   OFL: SEGGER_FL_CheckBlank() N/A
T3A34 64578:221.612   OFL: SEGGER_FL_Prepare() N/A
T3A34 64578:221.617   OFL: SEGGER_FL_Restore() N/A
T3A34 64578:221.622   OFL: SEGGER_FL_EraseChip() N/A
T3A34 64578:221.679   Flash bank @ 0x1FFF0080: SFL: Parsing sectorization info from ELF file
T3A34 64578:221.684     FlashDevice.SectorInfo[0]: .SectorSize = 0x00000010, .SectorStartAddr = 0x00000000
T3A34 64578:221.689   OFL: Init() present @ offset 0x00000003
T3A34 64578:221.694   OFL: UnInit() present @ offset 0x0000003B
T3A34 64578:221.699   OFL: EraseSector() present @ offset 0x00000055
T3A34 64578:221.704   OFL: ProgramPage() present @ offset 0x0000005D
T3A34 64578:221.709   OFL: EraseChip() present @ offset 0x00000051
T3A34 64578:221.714   OFL: BlankCheck() present @ offset 0x00000059
T3A34 64578:221.718   OFL: Verify() present @ offset 0x000000B3
T3A34 64578:221.723   OFL: SEGGER_FL_Erase() N/A
T3A34 64578:221.728   OFL: SEGGER_OPEN_Erase() N/A
T3A34 64578:221.733   OFL: SEGGER_FL_Program() N/A
T3A34 64578:221.737   OFL: SEGGER_OPEN_Program() N/A
T3A34 64578:221.742   OFL: SEGGER_FL_Read() N/A
T3A34 64578:221.747   OFL: SEGGER_OPEN_Read() N/A
T3A34 64578:221.752   OFL: SEGGER_FL_CalcCRC() N/A
T3A34 64578:221.756   OFL: SEGGER_OPEN_CalcCRC() N/A
T3A34 64578:221.790   OFL: SEGGER_FL_Start() N/A
T3A34 64578:221.795   OFL: SEGGER_OPEN_Start() N/A
T3A34 64578:221.800   OFL: SEGGER_FL_GetFlashInfo() N/A
T3A34 64578:221.805   OFL: SEGGER_OPEN_GetFlashInfo() N/A
T3A34 64578:221.810   OFL: SEGGER_FL_Verify() N/A
T3A34 64578:221.814   OFL: SEGGER_FL_CheckBlank() N/A
T3A34 64578:221.819   OFL: SEGGER_FL_Prepare() N/A
T3A34 64578:221.824   OFL: SEGGER_FL_Restore() N/A
T3A34 64578:221.829   OFL: SEGGER_FL_EraseChip() N/A
T3A34 64578:221.873   Flash bank @ 0x1FFF0280: SFL: Parsing sectorization info from ELF file
T3A34 64578:221.878     FlashDevice.SectorInfo[0]: .SectorSize = 0x00000080, .SectorStartAddr = 0x00000000
T3A34 64578:221.883   OFL: Init() present @ offset 0x00000003
T3A34 64578:221.888   OFL: UnInit() present @ offset 0x00000033
T3A34 64578:221.893   OFL: EraseSector() present @ offset 0x0000008F
T3A34 64578:221.898   OFL: ProgramPage() present @ offset 0x0000009F
T3A34 64578:221.903   OFL: EraseChip() present @ offset 0x00000083
T3A34 64578:221.908   OFL: BlankCheck() present @ offset 0x0000009B
T3A34 64578:221.912   OFL: Verify() N/A
T3A34 64578:221.917   OFL: SEGGER_FL_Erase() N/A
T3A34 64578:221.922   OFL: SEGGER_OPEN_Erase() N/A
T3A34 64578:221.927   OFL: SEGGER_FL_Program() N/A
T3A34 64578:221.932   OFL: SEGGER_OPEN_Program() N/A
T3A34 64578:221.936   OFL: SEGGER_FL_Read() N/A
T3A34 64578:221.942   OFL: SEGGER_OPEN_Read() N/A
T3A34 64578:221.948   OFL: SEGGER_FL_CalcCRC() N/A
T3A34 64578:221.953   OFL: SEGGER_OPEN_CalcCRC() N/A
T3A34 64578:221.958   OFL: SEGGER_FL_Start() N/A
T3A34 64578:221.963   OFL: SEGGER_OPEN_Start() N/A
T3A34 64578:221.967   OFL: SEGGER_FL_GetFlashInfo() N/A
T3A34 64578:221.972   OFL: SEGGER_OPEN_GetFlashInfo() N/A
T3A34 64578:221.977   OFL: SEGGER_FL_Verify() N/A
T3A34 64578:221.982   OFL: SEGGER_FL_CheckBlank() N/A
T3A34 64578:221.987   OFL: SEGGER_FL_Prepare() N/A
T3A34 64578:221.992   OFL: SEGGER_FL_Restore() N/A
T3A34 64578:221.996   OFL: SEGGER_FL_EraseChip() N/A
T3A34 64578:223.384   Device "PY32F002BX5" selected.
T3A34 64578:223.599 - 2.258ms returns 0x00
T3A34 64578:223.609 JLINK_ExecCommand("DisableConnectionTimeout", ...). 
T3A34 64578:223.615 - 0.002ms returns 0x01
T3A34 64578:223.623 JLINK_GetHardwareVersion()
T3A34 64578:223.627 - 0.005ms returns 97000
T3A34 64578:223.632 JLINK_GetDLLVersion()
T3A34 64578:223.638 - 0.008ms returns 78603
T3A34 64578:223.643 JLINK_GetOEMString(...)
T3A34 64578:223.648 JLINK_GetFirmwareString(...)
T3A34 64578:223.652 - 0.005ms
T3A34 64578:228.188 JLINK_GetDLLVersion()
T3A34 64578:228.202 - 0.015ms returns 78603
T3A34 64578:228.210 JLINK_GetCompileDateTime()
T3A34 64578:228.213 - 0.005ms
T3A34 64578:229.366 JLINK_GetFirmwareString(...)
T3A34 64578:229.377 - 0.013ms
T3A34 64578:230.528 JLINK_GetHardwareVersion()
T3A34 64578:230.538 - 0.011ms returns 97000
T3A34 64578:231.690 JLINK_GetSN()
T3A34 64578:231.699 - 0.011ms returns 150712143
T3A34 64578:232.822 JLINK_GetOEMString(...)
T3A34 64578:235.079 JLINK_TIF_Select(JLINKARM_TIF_SWD)
T3A34 64578:236.441 - 1.366ms returns 0x00
T3A34 64578:236.451 JLINK_HasError()
T3A34 64578:236.458 JLINK_SetSpeed(5000)
T3A34 64578:236.717 - 0.260ms
T3A34 64578:236.723 JLINK_GetId()
T3A34 64578:239.073   Found SW-DP with ID 0x0BC11477
T3A34 64578:244.159   DPIDR: 0x0BC11477
T3A34 64578:245.272   CoreSight SoC-400 or earlier
T3A34 64578:246.370   Scanning AP map to find all available APs
T3A34 64578:248.512   AP[1]: Stopped AP scan as end of AP map has been reached
T3A34 64578:249.624   AP[0]: AHB-AP (IDR: 0x04770031)
T3A34 64578:250.739   Iterating through AP map to find AHB-AP to use
T3A34 64578:253.355   AP[0]: Core found
T3A34 64578:254.527   AP[0]: AHB-AP ROM base: 0xE00FF000
T3A34 64578:256.506   CPUID register: 0x410CC601. Implementer code: 0x41 (ARM)
T3A34 64578:258.614   Found Cortex-M0 r0p1, Little endian.
T3A34 64578:259.392   -- Max. mem block: 0x00010C40
T3A34 64578:260.238   CPU_ReadMem(4 bytes @ 0xE000EDF0)
T3A34 64578:260.906   CPU_WriteMem(4 bytes @ 0xE000EDF0)
T3A34 64578:261.422   CPU_ReadMem(4 bytes @ 0xE0002000)
T3A34 64578:263.108   FPUnit: 4 code (BP) slots and 0 literal slots
T3A34 64578:263.123   CPU_ReadMem(4 bytes @ 0xE000EDFC)
T3A34 64578:263.559   CPU_WriteMem(4 bytes @ 0xE000EDFC)
T3A34 64578:264.030   CPU_ReadMem(4 bytes @ 0xE0001000)
T3A34 64578:264.508   CPU_WriteMem(4 bytes @ 0xE0001000)
T3A34 64578:266.171   CoreSight components:
T3A34 64578:267.337   ROMTbl[0] @ E00FF000
T3A34 64578:267.351   CPU_ReadMem(64 bytes @ 0xE00FF000)
T3A34 64578:268.140   CPU_ReadMem(32 bytes @ 0xE000EFE0)
T3A34 64578:269.898   [0][0]: E000E000 CID B105E00D PID 000BB008 SCS
T3A34 64578:269.911   CPU_ReadMem(32 bytes @ 0xE0001FE0)
T3A34 64578:271.693   [0][1]: E0001000 CID B105E00D PID 000BB00A DWT
T3A34 64578:271.705   CPU_ReadMem(32 bytes @ 0xE0002FE0)
T3A34 64578:273.572   [0][2]: E0002000 CID B105E00D PID 000BB00B FPB
T3A34 64578:274.265 - 37.547ms returns 0x0BC11477
T3A34 64578:274.282 JLINK_GetDLLVersion()
T3A34 64578:274.286 - 0.005ms returns 78603
T3A34 64578:274.303 JLINK_CORE_GetFound()
T3A34 64578:274.307 - 0.005ms returns 0x60000FF
T3A34 64578:274.312 JLINK_GetDebugInfo(0x100 = JLINKARM_ROM_TABLE_ADDR_INDEX)
T3A34 64578:274.316   Value=0xE00FF000
T3A34 64578:274.321 - 0.011ms returns 0
T3A34 64578:275.707 JLINK_GetDebugInfo(0x100 = JLINKARM_ROM_TABLE_ADDR_INDEX)
T3A34 64578:275.717   Value=0xE00FF000
T3A34 64578:275.722 - 0.016ms returns 0
T3A34 64578:275.726 JLINK_GetDebugInfo(0x101 = JLINKARM_DEBUG_INFO_ETM_ADDR_INDEX)
T3A34 64578:275.730   Value=0x00000000
T3A34 64578:275.734 - 0.009ms returns 0
T3A34 64578:275.742 JLINK_ReadMemEx(0xE0041FF0, 0x10 Bytes, Flags = 0x02000004)
T3A34 64578:275.752   CPU_ReadMem(16 bytes @ 0xE0041FF0)
T3A34 64578:276.411   Data:  00 00 00 00 00 00 00 00 00 00 00 00 00 00 00 00
T3A34 64578:276.417 - 0.676ms returns 16 (0x10)
T3A34 64578:276.422 JLINK_GetDebugInfo(0x102 = JLINKARM_DEBUG_INFO_MTB_ADDR_INDEX)
T3A34 64578:276.425   Value=0x00000000
T3A34 64578:276.430 - 0.009ms returns 0
T3A34 64578:276.434 JLINK_GetDebugInfo(0x103 = JLINKARM_DEBUG_INFO_TPIU_ADDR_INDEX)
T3A34 64578:276.437   Value=0x00000000
T3A34 64578:276.442 - 0.009ms returns 0
T3A34 64578:276.446 JLINK_ReadMemEx(0xE0040FF0, 0x10 Bytes, Flags = 0x02000004)
T3A34 64578:276.451   CPU_ReadMem(16 bytes @ 0xE0040FF0)
T3A34 64578:276.925   Data:  00 00 00 00 00 00 00 00 00 00 00 00 00 00 00 00
T3A34 64578:276.930 - 0.486ms returns 16 (0x10)
T3A34 64578:276.935 JLINK_GetDebugInfo(0x104 = JLINKARM_DEBUG_INFO_ITM_ADDR_INDEX)
T3A34 64578:276.939   Value=0xE0000000
T3A34 64578:276.944 - 0.010ms returns 0
T3A34 64578:276.947 JLINK_GetDebugInfo(0x105 = JLINKARM_DEBUG_INFO_DWT_ADDR_INDEX)
T3A34 64578:276.951   Value=0xE0001000
T3A34 64578:276.956 - 0.010ms returns 0
T3A34 64578:276.960 JLINK_GetDebugInfo(0x106 = JLINKARM_DEBUG_INFO_FPB_ADDR_INDEX)
T3A34 64578:276.963   Value=0xE0002000
T3A34 64578:276.968 - 0.009ms returns 0
T3A34 64578:276.972 JLINK_GetDebugInfo(0x107 = JLINKARM_DEBUG_INFO_NVIC_ADDR_INDEX)
T3A34 64578:276.975   Value=0xE000E000
T3A34 64578:276.980 - 0.009ms returns 0
T3A34 64578:276.983 JLINK_GetDebugInfo(0x10C = JLINKARM_DEBUG_INFO_DBG_ADDR_INDEX)
T3A34 64578:276.987   Value=0xE000EDF0
T3A34 64578:276.991 - 0.009ms returns 0
T3A34 64578:276.995 JLINK_GetDebugInfo(0x01 = Unknown)
T3A34 64578:276.999   Value=0x00000000
T3A34 64578:277.003 - 0.009ms returns 0
T3A34 64578:277.009 JLINK_ReadMemU32(0xE000ED00, 0x1 Items)
T3A34 64578:277.014   CPU_ReadMem(4 bytes @ 0xE000ED00)
T3A34 64578:277.423   Data:  01 C6 0C 41
T3A34 64578:277.429   Debug reg: CPUID
T3A34 64578:277.434 - 0.426ms returns 1 (0x1)
T3A34 64578:277.440 JLINK_GetDebugInfo(0x10F = JLINKARM_DEBUG_INFO_HAS_CORTEX_M_SECURITY_EXT_INDEX)
T3A34 64578:277.444   Value=0x00000000
T3A34 64578:277.449 - 0.010ms returns 0
T3A34 64578:277.453 JLINK_HasError()
T3A34 64578:277.458 JLINK_SetResetType(JLINKARM_CM3_RESET_TYPE_NORMAL)
T3A34 64578:277.462 - 0.005ms returns JLINKARM_CM3_RESET_TYPE_NORMAL
T3A34 64578:277.467 JLINK_Reset()
T3A34 64578:277.473   CPU is running
T3A34 64578:277.487   CPU_WriteMem(4 bytes @ 0xE000EDF0)
T3A34 64578:278.059   CPU is running
T3A34 64578:278.065   CPU_WriteMem(4 bytes @ 0xE000EDFC)
T3A34 64578:279.786   Reset: Halt core after reset via DEMCR.VC_CORERESET.
T3A34 64578:281.843   Reset: Reset device via AIRCR.SYSRESETREQ.
T3A34 64578:281.857   CPU is running
T3A34 64578:281.864   CPU_WriteMem(4 bytes @ 0xE000ED0C)
T3A34 64578:336.862   CPU_ReadMem(4 bytes @ 0xE000EDF0)
T3A34 64578:337.420   CPU_ReadMem(4 bytes @ 0xE000EDF0)
T3A34 64578:340.311   CPU_WriteMem(4 bytes @ 0xE000EDFC)
T3A34 64578:346.742   CPU_ReadMem(4 bytes @ 0xE000EDF0)
T3A34 64578:349.368   CPU_WriteMem(4 bytes @ 0xE0002000)
T3A34 64578:350.099   CPU_ReadMem(4 bytes @ 0xE000EDFC)
T3A34 64578:350.561   CPU_ReadMem(4 bytes @ 0xE0001000)
T3A34 64578:351.022   CPU_WriteMem(4 bytes @ 0xE0001000)
T3A34 64578:351.479 - 74.015ms
T3A34 64578:351.540 JLINK_Halt()
T3A34 64578:351.545 - 0.007ms returns 0x00
T3A34 64578:351.552 JLINK_ReadMemU32(0xE000EDF0, 0x1 Items)
T3A34 64578:351.563   CPU_ReadMem(4 bytes @ 0xE000EDF0)
T3A34 64578:352.067   Data:  03 00 03 00
T3A34 64578:352.075   Debug reg: DHCSR
T3A34 64578:352.081 - 0.531ms returns 1 (0x1)
T3A34 64578:352.089 JLINK_WriteU32_64(0xE000EDF0, 0xA05F0003)
T3A34 64578:352.094   Debug reg: DHCSR
T3A34 64578:352.327   CPU_WriteMem(4 bytes @ 0xE000EDF0)
T3A34 64578:352.854 - 0.767ms returns 0 (0x00000000)
T3A34 64578:352.861 JLINK_WriteU32_64(0xE000EDFC, 0x01000000)
T3A34 64578:352.866   Debug reg: DEMCR
T3A34 64578:352.875   CPU_WriteMem(4 bytes @ 0xE000EDFC)
T3A34 64578:353.564 - 0.705ms returns 0 (0x00000000)
T3A34 64578:359.845 JLINK_GetHWStatus(...)
T3A34 64578:360.304 - 0.468ms returns 0
T3A34 64578:364.351 JLINK_GetNumBPUnits(Type = 0xFFFFFF00)
T3A34 64578:364.362 - 0.013ms returns 0x04
T3A34 64578:364.367 JLINK_GetNumBPUnits(Type = 0xF0)
T3A34 64578:364.371 - 0.005ms returns 0x2000
T3A34 64578:364.375 JLINK_GetNumWPUnits()
T3A34 64578:364.379 - 0.004ms returns 2
T3A34 64578:367.597 JLINK_GetSpeed()
T3A34 64578:367.608 - 0.012ms returns 4000
T3A34 64578:369.700 JLINK_ReadMemU32(0xE000E004, 0x1 Items)
T3A34 64578:369.717   CPU_ReadMem(4 bytes @ 0xE000E004)
T3A34 64578:370.171   Data:  00 00 00 00
T3A34 64578:370.182 - 0.484ms returns 1 (0x1)
T3A34 64578:370.191 JLINK_Halt()
T3A34 64578:370.194 - 0.005ms returns 0x00
T3A34 64578:370.200 JLINK_IsHalted()
T3A34 64578:370.204 - 0.006ms returns TRUE
T3A34 64578:371.592 JLINK_WriteMem(0x20000000, 0x290 Bytes, ...)
T3A34 64578:371.599   Data:  00 BE 0A E0 0D 78 2D 06 68 40 08 24 40 00 00 D3 ...
T3A34 64578:371.779   CPU_WriteMem(656 bytes @ 0x20000000)
T3A34 64578:374.512 - 2.928ms returns 0x290
T3A34 64578:374.547 JLINK_HasError()
T3A34 64578:374.555 JLINK_WriteReg(R0, 0x08000000)
T3A34 64578:374.560 - 0.007ms returns 0
T3A34 64578:374.566 JLINK_WriteReg(R1, 0x00B71B00)
T3A34 64578:374.569 - 0.005ms returns 0
T3A34 64578:374.573 JLINK_WriteReg(R2, 0x00000001)
T3A34 64578:374.576 - 0.004ms returns 0
T3A34 64578:374.580 JLINK_WriteReg(R3, 0x00000000)
T3A34 64578:374.584 - 0.004ms returns 0
T3A34 64578:374.587 JLINK_WriteReg(R4, 0x00000000)
T3A34 64578:374.590 - 0.004ms returns 0
T3A34 64578:374.594 JLINK_WriteReg(R5, 0x00000000)
T3A34 64578:374.598 - 0.005ms returns 0
T3A34 64578:374.601 JLINK_WriteReg(R6, 0x00000000)
T3A34 64578:374.605 - 0.005ms returns 0
T3A34 64578:374.609 JLINK_WriteReg(R7, 0x00000000)
T3A34 64578:374.612 - 0.005ms returns 0
T3A34 64578:374.616 JLINK_WriteReg(R8, 0x00000000)
T3A34 64578:374.620 - 0.005ms returns 0
T3A34 64578:374.623 JLINK_WriteReg(R9, 0x20000288)
T3A34 64578:374.627 - 0.005ms returns 0
T3A34 64578:374.631 JLINK_WriteReg(R10, 0x00000000)
T3A34 64578:374.634 - 0.005ms returns 0
T3A34 64578:374.638 JLINK_WriteReg(R11, 0x00000000)
T3A34 64578:374.642 - 0.005ms returns 0
T3A34 64578:374.646 JLINK_WriteReg(R12, 0x00000000)
T3A34 64578:374.649 - 0.005ms returns 0
T3A34 64578:374.653 JLINK_WriteReg(R13 (SP), 0x20000800)
T3A34 64578:374.657 - 0.005ms returns 0
T3A34 64578:374.661 JLINK_WriteReg(R14, 0x20000001)
T3A34 64578:374.707 - 0.047ms returns 0
T3A34 64578:374.711 JLINK_WriteReg(R15 (PC), 0x20000022)
T3A34 64578:374.715 - 0.005ms returns 0
T3A34 64578:374.719 JLINK_WriteReg(XPSR, 0x01000000)
T3A34 64578:374.722 - 0.005ms returns 0
T3A34 64578:374.726 JLINK_WriteReg(MSP, 0x20000800)
T3A34 64578:374.730 - 0.005ms returns 0
T3A34 64578:374.734 JLINK_WriteReg(PSP, 0x20000800)
T3A34 64578:374.737 - 0.005ms returns 0
T3A34 64578:374.741 JLINK_WriteReg(CFBP, 0x00000000)
T3A34 64578:374.744 - 0.005ms returns 0
T3A34 64578:374.749 JLINK_SetBPEx(Addr = 0x20000000, Type = 0xFFFFFFF2)
T3A34 64578:374.757   CPU_ReadMem(2 bytes @ 0x20000000)
T3A34 64578:375.251 - 0.504ms returns 0x00000001
T3A34 64578:375.258 JLINK_Go()
T3A34 64578:375.263   CPU_WriteMem(2 bytes @ 0x20000000)
T3A34 64578:375.713   CPU_ReadMem(4 bytes @ 0xE0001000)
T3A34 64578:376.174   CPU_WriteMem(4 bytes @ 0xE0001000)
T3A34 64578:376.640   CPU_WriteMem(4 bytes @ 0xE0002008)
T3A34 64578:376.647   CPU_WriteMem(4 bytes @ 0xE000200C)
T3A34 64578:376.651   CPU_WriteMem(4 bytes @ 0xE0002010)
T3A34 64578:376.656   CPU_WriteMem(4 bytes @ 0xE0002014)
T3A34 64578:377.523   CPU_WriteMem(4 bytes @ 0xE0001004)
T3A34 64578:380.396 - 5.140ms
T3A34 64578:380.406 JLINK_IsHalted()
T3A34 64578:382.562   CPU_ReadMem(2 bytes @ 0x20000000)
T3A34 64578:383.157 - 2.752ms returns TRUE
T3A34 64578:383.170 JLINK_ReadReg(R15 (PC))
T3A34 64578:383.174 - 0.006ms returns 0x20000000
T3A34 64578:383.179 JLINK_ClrBPEx(BPHandle = 0x00000001)
T3A34 64578:383.183 - 0.005ms returns 0x00
T3A34 64578:383.187 JLINK_ReadReg(R0)
T3A34 64578:383.190 - 0.005ms returns 0x00000000
T3A34 64578:383.393 JLINK_HasError()
T3A34 64578:383.401 JLINK_WriteReg(R0, 0x08000000)
T3A34 64578:383.405 - 0.006ms returns 0
T3A34 64578:383.409 JLINK_WriteReg(R1, 0x00001000)
T3A34 64578:383.413 - 0.005ms returns 0
T3A34 64578:383.416 JLINK_WriteReg(R2, 0x000000FF)
T3A34 64578:383.420 - 0.004ms returns 0
T3A34 64578:383.423 JLINK_WriteReg(R3, 0x00000000)
T3A34 64578:383.427 - 0.004ms returns 0
T3A34 64578:383.431 JLINK_WriteReg(R4, 0x00000000)
T3A34 64578:383.434 - 0.004ms returns 0
T3A34 64578:383.438 JLINK_WriteReg(R5, 0x00000000)
T3A34 64578:383.441 - 0.004ms returns 0
T3A34 64578:383.445 JLINK_WriteReg(R6, 0x00000000)
T3A34 64578:383.448 - 0.004ms returns 0
T3A34 64578:383.452 JLINK_WriteReg(R7, 0x00000000)
T3A34 64578:383.455 - 0.004ms returns 0
T3A34 64578:383.459 JLINK_WriteReg(R8, 0x00000000)
T3A34 64578:383.462 - 0.004ms returns 0
T3A34 64578:383.466 JLINK_WriteReg(R9, 0x20000288)
T3A34 64578:383.469 - 0.004ms returns 0
T3A34 64578:383.473 JLINK_WriteReg(R10, 0x00000000)
T3A34 64578:383.476 - 0.004ms returns 0
T3A34 64578:383.480 JLINK_WriteReg(R11, 0x00000000)
T3A34 64578:383.483 - 0.004ms returns 0
T3A34 64578:383.487 JLINK_WriteReg(R12, 0x00000000)
T3A34 64578:383.490 - 0.004ms returns 0
T3A34 64578:383.494 JLINK_WriteReg(R13 (SP), 0x20000800)
T3A34 64578:383.498 - 0.005ms returns 0
T3A34 64578:383.502 JLINK_WriteReg(R14, 0x20000001)
T3A34 64578:383.505 - 0.004ms returns 0
T3A34 64578:383.509 JLINK_WriteReg(R15 (PC), 0x20000164)
T3A34 64578:383.512 - 0.004ms returns 0
T3A34 64578:383.516 JLINK_WriteReg(XPSR, 0x01000000)
T3A34 64578:383.519 - 0.004ms returns 0
T3A34 64578:383.523 JLINK_WriteReg(MSP, 0x20000800)
T3A34 64578:383.526 - 0.005ms returns 0
T3A34 64578:383.531 JLINK_WriteReg(PSP, 0x20000800)
T3A34 64578:383.534 - 0.004ms returns 0
T3A34 64578:383.538 JLINK_WriteReg(CFBP, 0x00000000)
T3A34 64578:383.541 - 0.004ms returns 0
T3A34 64578:383.545 JLINK_SetBPEx(Addr = 0x20000000, Type = 0xFFFFFFF2)
T3A34 64578:383.549 - 0.005ms returns 0x00000002
T3A34 64578:383.553 JLINK_Go()
T3A34 64578:383.560   CPU_ReadMem(4 bytes @ 0xE0001000)
T3A34 64578:386.166 - 2.616ms
T3A34 64578:386.173 JLINK_IsHalted()
T3A34 64578:388.449   CPU_ReadMem(2 bytes @ 0x20000000)
T3A34 64578:388.955 - 2.784ms returns TRUE
T3A34 64578:388.960 JLINK_ReadReg(R15 (PC))
T3A34 64578:388.965 - 0.005ms returns 0x20000000
T3A34 64578:388.969 JLINK_ClrBPEx(BPHandle = 0x00000002)
T3A34 64578:388.977 - 0.009ms returns 0x00
T3A34 64578:388.981 JLINK_ReadReg(R0)
T3A34 64578:388.987 - 0.007ms returns 0x00000001
T3A34 64578:388.992 JLINK_HasError()
T3A34 64578:388.996 JLINK_WriteReg(R0, 0x08000000)
T3A34 64578:389.000 - 0.005ms returns 0
T3A34 64578:389.004 JLINK_WriteReg(R1, 0x00001000)
T3A34 64578:389.008 - 0.005ms returns 0
T3A34 64578:389.012 JLINK_WriteReg(R2, 0x000000FF)
T3A34 64578:389.016 - 0.005ms returns 0
T3A34 64578:389.020 JLINK_WriteReg(R3, 0x00000000)
T3A34 64578:389.023 - 0.005ms returns 0
T3A34 64578:389.028 JLINK_WriteReg(R4, 0x00000000)
T3A34 64578:389.031 - 0.005ms returns 0
T3A34 64578:389.035 JLINK_WriteReg(R5, 0x00000000)
T3A34 64578:389.039 - 0.005ms returns 0
T3A34 64578:389.048 JLINK_WriteReg(R6, 0x00000000)
T3A34 64578:389.051 - 0.005ms returns 0
T3A34 64578:389.055 JLINK_WriteReg(R7, 0x00000000)
T3A34 64578:389.059 - 0.005ms returns 0
T3A34 64578:389.063 JLINK_WriteReg(R8, 0x00000000)
T3A34 64578:389.067 - 0.005ms returns 0
T3A34 64578:389.071 JLINK_WriteReg(R9, 0x20000288)
T3A34 64578:389.074 - 0.005ms returns 0
T3A34 64578:389.079 JLINK_WriteReg(R10, 0x00000000)
T3A34 64578:389.082 - 0.005ms returns 0
T3A34 64578:389.086 JLINK_WriteReg(R11, 0x00000000)
T3A34 64578:389.090 - 0.005ms returns 0
T3A34 64578:389.094 JLINK_WriteReg(R12, 0x00000000)
T3A34 64578:389.098 - 0.005ms returns 0
T3A34 64578:389.102 JLINK_WriteReg(R13 (SP), 0x20000800)
T3A34 64578:389.106 - 0.005ms returns 0
T3A34 64578:389.110 JLINK_WriteReg(R14, 0x20000001)
T3A34 64578:389.114 - 0.005ms returns 0
T3A34 64578:389.118 JLINK_WriteReg(R15 (PC), 0x20000100)
T3A34 64578:389.122 - 0.005ms returns 0
T3A34 64578:389.126 JLINK_WriteReg(XPSR, 0x01000000)
T3A34 64578:389.129 - 0.005ms returns 0
T3A34 64578:389.134 JLINK_WriteReg(MSP, 0x20000800)
T3A34 64578:389.137 - 0.005ms returns 0
T3A34 64578:389.141 JLINK_WriteReg(PSP, 0x20000800)
T3A34 64578:389.160 - 0.020ms returns 0
T3A34 64578:389.164 JLINK_WriteReg(CFBP, 0x00000000)
T3A34 64578:389.168 - 0.005ms returns 0
T3A34 64578:389.172 JLINK_SetBPEx(Addr = 0x20000000, Type = 0xFFFFFFF2)
T3A34 64578:389.176 - 0.005ms returns 0x00000003
T3A34 64578:389.180 JLINK_Go()
T3A34 64578:389.186   CPU_ReadMem(4 bytes @ 0xE0001000)
T3A34 64578:392.017 - 2.845ms
T3A34 64578:392.031 JLINK_IsHalted()
T3A34 64578:395.795 - 3.778ms returns FALSE
T3A34 64578:395.823 JLINK_HasError()
T3A34 64578:403.725 JLINK_IsHalted()
T3A34 64578:406.268   CPU_ReadMem(2 bytes @ 0x20000000)
T3A34 64578:406.726 - 3.003ms returns TRUE
T3A34 64578:406.731 JLINK_ReadReg(R15 (PC))
T3A34 64578:406.736 - 0.006ms returns 0x20000000
T3A34 64578:406.740 JLINK_ClrBPEx(BPHandle = 0x00000003)
T3A34 64578:406.744 - 0.005ms returns 0x00
T3A34 64578:406.748 JLINK_ReadReg(R0)
T3A34 64578:406.752 - 0.005ms returns 0x00000000
T3A34 64578:406.926 JLINK_HasError()
T3A34 64578:406.933 JLINK_WriteReg(R0, 0x00000001)
T3A34 64578:406.938 - 0.005ms returns 0
T3A34 64578:406.942 JLINK_WriteReg(R1, 0x00001000)
T3A34 64578:406.945 - 0.005ms returns 0
T3A34 64578:406.949 JLINK_WriteReg(R2, 0x000000FF)
T3A34 64578:406.952 - 0.004ms returns 0
T3A34 64578:406.956 JLINK_WriteReg(R3, 0x00000000)
T3A34 64578:406.959 - 0.004ms returns 0
T3A34 64578:406.963 JLINK_WriteReg(R4, 0x00000000)
T3A34 64578:406.966 - 0.004ms returns 0
T3A34 64578:406.970 JLINK_WriteReg(R5, 0x00000000)
T3A34 64578:406.973 - 0.004ms returns 0
T3A34 64578:406.977 JLINK_WriteReg(R6, 0x00000000)
T3A34 64578:406.980 - 0.005ms returns 0
T3A34 64578:406.984 JLINK_WriteReg(R7, 0x00000000)
T3A34 64578:406.987 - 0.004ms returns 0
T3A34 64578:406.991 JLINK_WriteReg(R8, 0x00000000)
T3A34 64578:406.994 - 0.004ms returns 0
T3A34 64578:406.998 JLINK_WriteReg(R9, 0x20000288)
T3A34 64578:407.001 - 0.004ms returns 0
T3A34 64578:407.005 JLINK_WriteReg(R10, 0x00000000)
T3A34 64578:407.009 - 0.005ms returns 0
T3A34 64578:407.012 JLINK_WriteReg(R11, 0x00000000)
T3A34 64578:407.016 - 0.004ms returns 0
T3A34 64578:407.020 JLINK_WriteReg(R12, 0x00000000)
T3A34 64578:407.023 - 0.008ms returns 0
T3A34 64578:407.031 JLINK_WriteReg(R13 (SP), 0x20000800)
T3A34 64578:407.035 - 0.005ms returns 0
T3A34 64578:407.039 JLINK_WriteReg(R14, 0x20000001)
T3A34 64578:407.042 - 0.004ms returns 0
T3A34 64578:407.046 JLINK_WriteReg(R15 (PC), 0x20000064)
T3A34 64578:407.049 - 0.005ms returns 0
T3A34 64578:407.053 JLINK_WriteReg(XPSR, 0x01000000)
T3A34 64578:407.056 - 0.004ms returns 0
T3A34 64578:407.060 JLINK_WriteReg(MSP, 0x20000800)
T3A34 64578:407.063 - 0.004ms returns 0
T3A34 64578:407.067 JLINK_WriteReg(PSP, 0x20000800)
T3A34 64578:407.070 - 0.004ms returns 0
T3A34 64578:407.074 JLINK_WriteReg(CFBP, 0x00000000)
T3A34 64578:407.077 - 0.004ms returns 0
T3A34 64578:407.081 JLINK_SetBPEx(Addr = 0x20000000, Type = 0xFFFFFFF2)
T3A34 64578:407.099 - 0.020ms returns 0x00000004
T3A34 64578:407.104 JLINK_Go()
T3A34 64578:407.111   CPU_ReadMem(4 bytes @ 0xE0001000)
T3A34 64578:410.665 - 3.568ms
T3A34 64578:410.680 JLINK_IsHalted()
T3A34 64578:413.082   CPU_ReadMem(2 bytes @ 0x20000000)
T3A34 64578:413.559 - 2.881ms returns TRUE
T3A34 64578:413.568 JLINK_ReadReg(R15 (PC))
T3A34 64578:413.572 - 0.006ms returns 0x20000000
T3A34 64578:413.578 JLINK_ClrBPEx(BPHandle = 0x00000004)
T3A34 64578:413.582 - 0.005ms returns 0x00
T3A34 64578:413.587 JLINK_ReadReg(R0)
T3A34 64578:413.591 - 0.005ms returns 0x00000000
T3A34 64578:472.607 JLINK_WriteMem(0x20000000, 0x290 Bytes, ...)
T3A34 64578:472.618   Data:  00 BE 0A E0 0D 78 2D 06 68 40 08 24 40 00 00 D3 ...
T3A34 64578:472.631   CPU_WriteMem(656 bytes @ 0x20000000)
T3A34 64578:475.341 - 2.744ms returns 0x290
T3A34 64578:475.376 JLINK_HasError()
T3A34 64578:475.385 JLINK_WriteReg(R0, 0x08000000)
T3A34 64578:475.390 - 0.007ms returns 0
T3A34 64578:475.395 JLINK_WriteReg(R1, 0x00B71B00)
T3A34 64578:475.398 - 0.005ms returns 0
T3A34 64578:475.402 JLINK_WriteReg(R2, 0x00000002)
T3A34 64578:475.406 - 0.005ms returns 0
T3A34 64578:475.409 JLINK_WriteReg(R3, 0x00000000)
T3A34 64578:475.413 - 0.004ms returns 0
T3A34 64578:475.416 JLINK_WriteReg(R4, 0x00000000)
T3A34 64578:475.420 - 0.004ms returns 0
T3A34 64578:475.424 JLINK_WriteReg(R5, 0x00000000)
T3A34 64578:475.427 - 0.004ms returns 0
T3A34 64578:475.430 JLINK_WriteReg(R6, 0x00000000)
T3A34 64578:475.434 - 0.005ms returns 0
T3A34 64578:475.438 JLINK_WriteReg(R7, 0x00000000)
T3A34 64578:475.441 - 0.004ms returns 0
T3A34 64578:475.445 JLINK_WriteReg(R8, 0x00000000)
T3A34 64578:475.448 - 0.004ms returns 0
T3A34 64578:475.452 JLINK_WriteReg(R9, 0x20000288)
T3A34 64578:475.455 - 0.004ms returns 0
T3A34 64578:475.459 JLINK_WriteReg(R10, 0x00000000)
T3A34 64578:475.462 - 0.005ms returns 0
T3A34 64578:475.466 JLINK_WriteReg(R11, 0x00000000)
T3A34 64578:475.469 - 0.004ms returns 0
T3A34 64578:475.473 JLINK_WriteReg(R12, 0x00000000)
T3A34 64578:475.476 - 0.004ms returns 0
T3A34 64578:475.480 JLINK_WriteReg(R13 (SP), 0x20000800)
T3A34 64578:475.484 - 0.005ms returns 0
T3A34 64578:475.488 JLINK_WriteReg(R14, 0x20000001)
T3A34 64578:475.491 - 0.005ms returns 0
T3A34 64578:475.495 JLINK_WriteReg(R15 (PC), 0x20000022)
T3A34 64578:475.498 - 0.005ms returns 0
T3A34 64578:475.502 JLINK_WriteReg(XPSR, 0x01000000)
T3A34 64578:475.505 - 0.004ms returns 0
T3A34 64578:475.509 JLINK_WriteReg(MSP, 0x20000800)
T3A34 64578:475.512 - 0.004ms returns 0
T3A34 64578:475.516 JLINK_WriteReg(PSP, 0x20000800)
T3A34 64578:475.519 - 0.004ms returns 0
T3A34 64578:475.523 JLINK_WriteReg(CFBP, 0x00000000)
T3A34 64578:475.527 - 0.005ms returns 0
T3A34 64578:475.531 JLINK_SetBPEx(Addr = 0x20000000, Type = 0xFFFFFFF2)
T3A34 64578:475.537   CPU_ReadMem(2 bytes @ 0x20000000)
T3A34 64578:476.047 - 0.523ms returns 0x00000005
T3A34 64578:476.058 JLINK_Go()
T3A34 64578:476.064   CPU_WriteMem(2 bytes @ 0x20000000)
T3A34 64578:476.567   CPU_ReadMem(4 bytes @ 0xE0001000)
T3A34 64578:479.401 - 3.345ms
T3A34 64578:479.408 JLINK_IsHalted()
T3A34 64578:481.665   CPU_ReadMem(2 bytes @ 0x20000000)
T3A34 64578:482.208 - 2.803ms returns TRUE
T3A34 64578:482.216 JLINK_ReadReg(R15 (PC))
T3A34 64578:482.222 - 0.011ms returns 0x20000000
T3A34 64578:482.233 JLINK_ClrBPEx(BPHandle = 0x00000005)
T3A34 64578:482.239 - 0.007ms returns 0x00
T3A34 64578:482.244 JLINK_ReadReg(R0)
T3A34 64578:482.248 - 0.006ms returns 0x00000000
T3A34 64578:482.485 JLINK_WriteMem(0x20000290, 0x80 Bytes, ...)
T3A34 64578:482.494   Data:  28 06 00 20 D5 00 00 08 6D 0B 00 08 45 0B 00 08 ...
T3A34 64578:482.507   CPU_WriteMem(128 bytes @ 0x20000290)
T3A34 64578:483.745 - 1.289ms returns 0x80
T3A34 64578:483.791 JLINK_HasError()
T3A34 64578:483.797 JLINK_WriteReg(R0, 0x08000000)
T3A34 64578:483.802 - 0.007ms returns 0
T3A34 64578:483.807 JLINK_WriteReg(R1, 0x00000080)
T3A34 64578:483.811 - 0.006ms returns 0
T3A34 64578:483.816 JLINK_WriteReg(R2, 0x20000290)
T3A34 64578:483.820 - 0.006ms returns 0
T3A34 64578:483.825 JLINK_WriteReg(R3, 0x00000000)
T3A34 64578:483.829 - 0.006ms returns 0
T3A34 64578:483.834 JLINK_WriteReg(R4, 0x00000000)
T3A34 64578:483.838 - 0.006ms returns 0
T3A34 64578:483.843 JLINK_WriteReg(R5, 0x00000000)
T3A34 64578:483.847 - 0.006ms returns 0
T3A34 64578:483.852 JLINK_WriteReg(R6, 0x00000000)
T3A34 64578:483.856 - 0.006ms returns 0
T3A34 64578:483.861 JLINK_WriteReg(R7, 0x00000000)
T3A34 64578:483.865 - 0.006ms returns 0
T3A34 64578:483.870 JLINK_WriteReg(R8, 0x00000000)
T3A34 64578:483.875 - 0.006ms returns 0
T3A34 64578:483.879 JLINK_WriteReg(R9, 0x20000288)
T3A34 64578:483.884 - 0.007ms returns 0
T3A34 64578:483.890 JLINK_WriteReg(R10, 0x00000000)
T3A34 64578:483.895 - 0.006ms returns 0
T3A34 64578:483.899 JLINK_WriteReg(R11, 0x00000000)
T3A34 64578:483.903 - 0.006ms returns 0
T3A34 64578:483.908 JLINK_WriteReg(R12, 0x00000000)
T3A34 64578:483.913 - 0.006ms returns 0
T3A34 64578:483.917 JLINK_WriteReg(R13 (SP), 0x20000800)
T3A34 64578:483.922 - 0.006ms returns 0
T3A34 64578:483.927 JLINK_WriteReg(R14, 0x20000001)
T3A34 64578:483.931 - 0.006ms returns 0
T3A34 64578:483.935 JLINK_WriteReg(R15 (PC), 0x2000016A)
T3A34 64578:483.940 - 0.006ms returns 0
T3A34 64578:483.944 JLINK_WriteReg(XPSR, 0x01000000)
T3A34 64578:483.949 - 0.006ms returns 0
T3A34 64578:483.953 JLINK_WriteReg(MSP, 0x20000800)
T3A34 64578:483.962 - 0.010ms returns 0
T3A34 64578:483.967 JLINK_WriteReg(PSP, 0x20000800)
T3A34 64578:483.971 - 0.006ms returns 0
T3A34 64578:483.975 JLINK_WriteReg(CFBP, 0x00000000)
T3A34 64578:483.979 - 0.006ms returns 0
T3A34 64578:483.984 JLINK_SetBPEx(Addr = 0x20000000, Type = 0xFFFFFFF2)
T3A34 64578:483.989 - 0.006ms returns 0x00000006
T3A34 64578:483.994 JLINK_Go()
T3A34 64578:484.002   CPU_ReadMem(4 bytes @ 0xE0001000)
T3A34 64578:486.831 - 2.839ms
T3A34 64578:486.838 JLINK_IsHalted()
T3A34 64578:487.996 - 1.185ms returns FALSE
T3A34 64578:488.028 JLINK_HasError()
T3A34 64578:492.402 JLINK_IsHalted()
T3A34 64578:494.778   CPU_ReadMem(2 bytes @ 0x20000000)
T3A34 64578:495.323 - 2.925ms returns TRUE
T3A34 64578:495.332 JLINK_ReadReg(R15 (PC))
T3A34 64578:495.338 - 0.008ms returns 0x20000000
T3A34 64578:495.344 JLINK_ClrBPEx(BPHandle = 0x00000006)
T3A34 64578:495.349 - 0.007ms returns 0x00
T3A34 64578:495.355 JLINK_ReadReg(R0)
T3A34 64578:495.360 - 0.007ms returns 0x00000000
T3A34 64578:495.763 JLINK_WriteMem(0x20000290, 0x80 Bytes, ...)
T3A34 64578:495.774   Data:  00 00 00 00 E7 00 00 08 00 00 00 00 E7 00 00 08 ...
T3A34 64578:495.787   CPU_WriteMem(128 bytes @ 0x20000290)
T3A34 64578:497.006 - 1.262ms returns 0x80
T3A34 64578:497.030 JLINK_HasError()
T3A34 64578:497.036 JLINK_WriteReg(R0, 0x08000080)
T3A34 64578:497.042 - 0.008ms returns 0
T3A34 64578:497.048 JLINK_WriteReg(R1, 0x00000080)
T3A34 64578:497.052 - 0.007ms returns 0
T3A34 64578:497.058 JLINK_WriteReg(R2, 0x20000290)
T3A34 64578:497.062 - 0.006ms returns 0
T3A34 64578:497.068 JLINK_WriteReg(R3, 0x00000000)
T3A34 64578:497.072 - 0.006ms returns 0
T3A34 64578:497.079 JLINK_WriteReg(R4, 0x00000000)
T3A34 64578:497.083 - 0.006ms returns 0
T3A34 64578:497.088 JLINK_WriteReg(R5, 0x00000000)
T3A34 64578:497.093 - 0.006ms returns 0
T3A34 64578:497.098 JLINK_WriteReg(R6, 0x00000000)
T3A34 64578:497.168 - 0.074ms returns 0
T3A34 64578:497.176 JLINK_WriteReg(R7, 0x00000000)
T3A34 64578:497.180 - 0.006ms returns 0
T3A34 64578:497.185 JLINK_WriteReg(R8, 0x00000000)
T3A34 64578:497.189 - 0.006ms returns 0
T3A34 64578:497.194 JLINK_WriteReg(R9, 0x20000288)
T3A34 64578:497.198 - 0.006ms returns 0
T3A34 64578:497.204 JLINK_WriteReg(R10, 0x00000000)
T3A34 64578:497.208 - 0.006ms returns 0
T3A34 64578:497.213 JLINK_WriteReg(R11, 0x00000000)
T3A34 64578:497.217 - 0.006ms returns 0
T3A34 64578:497.222 JLINK_WriteReg(R12, 0x00000000)
T3A34 64578:497.226 - 0.018ms returns 0
T3A34 64578:497.248 JLINK_WriteReg(R13 (SP), 0x20000800)
T3A34 64578:497.255 - 0.009ms returns 0
T3A34 64578:497.261 JLINK_WriteReg(R14, 0x20000001)
T3A34 64578:497.265 - 0.006ms returns 0
T3A34 64578:497.270 JLINK_WriteReg(R15 (PC), 0x2000016A)
T3A34 64578:497.275 - 0.006ms returns 0
T3A34 64578:497.280 JLINK_WriteReg(XPSR, 0x01000000)
T3A34 64578:497.284 - 0.006ms returns 0
T3A34 64578:497.289 JLINK_WriteReg(MSP, 0x20000800)
T3A34 64578:497.293 - 0.006ms returns 0
T3A34 64578:497.298 JLINK_WriteReg(PSP, 0x20000800)
T3A34 64578:497.303 - 0.006ms returns 0
T3A34 64578:497.308 JLINK_WriteReg(CFBP, 0x00000000)
T3A34 64578:497.312 - 0.006ms returns 0
T3A34 64578:497.318 JLINK_SetBPEx(Addr = 0x20000000, Type = 0xFFFFFFF2)
T3A34 64578:497.323 - 0.007ms returns 0x00000007
T3A34 64578:497.328 JLINK_Go()
T3A34 64578:497.338   CPU_ReadMem(4 bytes @ 0xE0001000)
T3A34 64578:499.995 - 2.674ms
T3A34 64578:500.008 JLINK_IsHalted()
T3A34 64578:501.138 - 1.155ms returns FALSE
T3A34 64578:501.169 JLINK_HasError()
T3A34 64578:503.451 JLINK_IsHalted()
T3A34 64578:505.783   CPU_ReadMem(2 bytes @ 0x20000000)
T3A34 64578:506.318 - 2.870ms returns TRUE
T3A34 64578:506.327 JLINK_ReadReg(R15 (PC))
T3A34 64578:506.333 - 0.008ms returns 0x20000000
T3A34 64578:506.339 JLINK_ClrBPEx(BPHandle = 0x00000007)
T3A34 64578:506.344 - 0.007ms returns 0x00
T3A34 64578:506.350 JLINK_ReadReg(R0)
T3A34 64578:506.355 - 0.007ms returns 0x00000000
T3A34 64578:506.750 JLINK_WriteMem(0x20000290, 0x80 Bytes, ...)
T3A34 64578:506.761   Data:  D5 40 9D 42 05 D3 1D 46 95 40 49 1B 25 46 95 40 ...
T3A34 64578:506.774   CPU_WriteMem(128 bytes @ 0x20000290)
T3A34 64578:507.941 - 1.200ms returns 0x80
T3A34 64578:507.957 JLINK_HasError()
T3A34 64578:507.965 JLINK_WriteReg(R0, 0x08000100)
T3A34 64578:507.974 - 0.012ms returns 0
T3A34 64578:507.981 JLINK_WriteReg(R1, 0x00000080)
T3A34 64578:507.986 - 0.008ms returns 0
T3A34 64578:507.994 JLINK_WriteReg(R2, 0x20000290)
T3A34 64578:507.999 - 0.007ms returns 0
T3A34 64578:508.004 JLINK_WriteReg(R3, 0x00000000)
T3A34 64578:508.009 - 0.007ms returns 0
T3A34 64578:508.015 JLINK_WriteReg(R4, 0x00000000)
T3A34 64578:508.020 - 0.007ms returns 0
T3A34 64578:508.025 JLINK_WriteReg(R5, 0x00000000)
T3A34 64578:508.030 - 0.007ms returns 0
T3A34 64578:508.036 JLINK_WriteReg(R6, 0x00000000)
T3A34 64578:508.041 - 0.007ms returns 0
T3A34 64578:508.046 JLINK_WriteReg(R7, 0x00000000)
T3A34 64578:508.051 - 0.007ms returns 0
T3A34 64578:508.057 JLINK_WriteReg(R8, 0x00000000)
T3A34 64578:508.061 - 0.007ms returns 0
T3A34 64578:508.067 JLINK_WriteReg(R9, 0x20000288)
T3A34 64578:508.072 - 0.007ms returns 0
T3A34 64578:508.077 JLINK_WriteReg(R10, 0x00000000)
T3A34 64578:508.082 - 0.007ms returns 0
T3A34 64578:508.088 JLINK_WriteReg(R11, 0x00000000)
T3A34 64578:508.093 - 0.007ms returns 0
T3A34 64578:508.098 JLINK_WriteReg(R12, 0x00000000)
T3A34 64578:508.103 - 0.007ms returns 0
T3A34 64578:508.109 JLINK_WriteReg(R13 (SP), 0x20000800)
T3A34 64578:508.114 - 0.007ms returns 0
T3A34 64578:508.120 JLINK_WriteReg(R14, 0x20000001)
T3A34 64578:508.125 - 0.007ms returns 0
T3A34 64578:508.130 JLINK_WriteReg(R15 (PC), 0x2000016A)
T3A34 64578:508.135 - 0.007ms returns 0
T3A34 64578:508.141 JLINK_WriteReg(XPSR, 0x01000000)
T3A34 64578:508.145 - 0.007ms returns 0
T3A34 64578:508.151 JLINK_WriteReg(MSP, 0x20000800)
T3A34 64578:508.156 - 0.007ms returns 0
T3A34 64578:508.161 JLINK_WriteReg(PSP, 0x20000800)
T3A34 64578:508.171 - 0.014ms returns 0
T3A34 64578:508.179 JLINK_WriteReg(CFBP, 0x00000000)
T3A34 64578:508.184 - 0.007ms returns 0
T3A34 64578:508.189 JLINK_SetBPEx(Addr = 0x20000000, Type = 0xFFFFFFF2)
T3A34 64578:508.199 - 0.012ms returns 0x00000008
T3A34 64578:508.205 JLINK_Go()
T3A34 64578:508.215   CPU_ReadMem(4 bytes @ 0xE0001000)
T3A34 64578:510.859 - 2.664ms
T3A34 64578:510.875 JLINK_IsHalted()
T3A34 64578:511.977 - 1.105ms returns FALSE
T3A34 64578:511.986 JLINK_HasError()
T3A34 64578:515.110 JLINK_IsHalted()
T3A34 64578:517.355   CPU_ReadMem(2 bytes @ 0x20000000)
T3A34 64578:517.898 - 2.791ms returns TRUE
T3A34 64578:517.911 JLINK_ReadReg(R15 (PC))
T3A34 64578:517.917 - 0.008ms returns 0x20000000
T3A34 64578:517.926 JLINK_ClrBPEx(BPHandle = 0x00000008)
T3A34 64578:517.931 - 0.007ms returns 0x00
T3A34 64578:517.939 JLINK_ReadReg(R0)
T3A34 64578:517.944 - 0.007ms returns 0x00000000
T3A34 64578:518.316 JLINK_WriteMem(0x20000290, 0x80 Bytes, ...)
T3A34 64578:518.328   Data:  06 78 0E 70 40 1C 49 1C 5B 1E F9 D1 2B 07 05 D4 ...
T3A34 64578:518.340   CPU_WriteMem(128 bytes @ 0x20000290)
T3A34 64578:519.455 - 1.146ms returns 0x80
T3A34 64578:519.469 JLINK_HasError()
T3A34 64578:519.475 JLINK_WriteReg(R0, 0x08000180)
T3A34 64578:519.482 - 0.009ms returns 0
T3A34 64578:519.488 JLINK_WriteReg(R1, 0x00000080)
T3A34 64578:519.493 - 0.007ms returns 0
T3A34 64578:519.498 JLINK_WriteReg(R2, 0x20000290)
T3A34 64578:519.503 - 0.007ms returns 0
T3A34 64578:519.508 JLINK_WriteReg(R3, 0x00000000)
T3A34 64578:519.513 - 0.007ms returns 0
T3A34 64578:519.518 JLINK_WriteReg(R4, 0x00000000)
T3A34 64578:519.523 - 0.007ms returns 0
T3A34 64578:519.528 JLINK_WriteReg(R5, 0x00000000)
T3A34 64578:519.533 - 0.006ms returns 0
T3A34 64578:519.538 JLINK_WriteReg(R6, 0x00000000)
T3A34 64578:519.543 - 0.006ms returns 0
T3A34 64578:519.548 JLINK_WriteReg(R7, 0x00000000)
T3A34 64578:519.553 - 0.007ms returns 0
T3A34 64578:519.559 JLINK_WriteReg(R8, 0x00000000)
T3A34 64578:519.563 - 0.006ms returns 0
T3A34 64578:519.569 JLINK_WriteReg(R9, 0x20000288)
T3A34 64578:519.573 - 0.006ms returns 0
T3A34 64578:519.580 JLINK_WriteReg(R10, 0x00000000)
T3A34 64578:519.585 - 0.006ms returns 0
T3A34 64578:519.590 JLINK_WriteReg(R11, 0x00000000)
T3A34 64578:519.595 - 0.006ms returns 0
T3A34 64578:519.600 JLINK_WriteReg(R12, 0x00000000)
T3A34 64578:519.605 - 0.007ms returns 0
T3A34 64578:519.610 JLINK_WriteReg(R13 (SP), 0x20000800)
T3A34 64578:519.615 - 0.007ms returns 0
T3A34 64578:519.621 JLINK_WriteReg(R14, 0x20000001)
T3A34 64578:519.625 - 0.007ms returns 0
T3A34 64578:519.631 JLINK_WriteReg(R15 (PC), 0x2000016A)
T3A34 64578:519.636 - 0.007ms returns 0
T3A34 64578:519.641 JLINK_WriteReg(XPSR, 0x01000000)
T3A34 64578:519.646 - 0.007ms returns 0
T3A34 64578:519.651 JLINK_WriteReg(MSP, 0x20000800)
T3A34 64578:519.656 - 0.006ms returns 0
T3A34 64578:519.661 JLINK_WriteReg(PSP, 0x20000800)
T3A34 64578:519.666 - 0.007ms returns 0
T3A34 64578:519.671 JLINK_WriteReg(CFBP, 0x00000000)
T3A34 64578:519.676 - 0.007ms returns 0
T3A34 64578:519.682 JLINK_SetBPEx(Addr = 0x20000000, Type = 0xFFFFFFF2)
T3A34 64578:519.687 - 0.007ms returns 0x00000009
T3A34 64578:519.693 JLINK_Go()
T3A34 64578:519.702   CPU_ReadMem(4 bytes @ 0xE0001000)
T3A34 64578:522.395 - 2.708ms
T3A34 64578:522.406 JLINK_IsHalted()
T3A34 64578:523.579 - 1.197ms returns FALSE
T3A34 64578:523.629 JLINK_HasError()
T3A34 64578:526.006 JLINK_IsHalted()
T3A34 64578:528.243   CPU_ReadMem(2 bytes @ 0x20000000)
T3A34 64578:528.773 - 2.770ms returns TRUE
T3A34 64578:528.782 JLINK_ReadReg(R15 (PC))
T3A34 64578:528.788 - 0.009ms returns 0x20000000
T3A34 64578:528.795 JLINK_ClrBPEx(BPHandle = 0x00000009)
T3A34 64578:528.800 - 0.008ms returns 0x00
T3A34 64578:528.806 JLINK_ReadReg(R0)
T3A34 64578:528.812 - 0.007ms returns 0x00000000
T3A34 64578:529.256 JLINK_WriteMem(0x20000290, 0x80 Bytes, ...)
T3A34 64578:529.268   Data:  00 F0 E2 F8 00 28 01 D0 FF F7 D7 FF 07 B0 00 BD ...
T3A34 64578:529.282   CPU_WriteMem(128 bytes @ 0x20000290)
T3A34 64578:530.458 - 1.226ms returns 0x80
T3A34 64578:530.493 JLINK_HasError()
T3A34 64578:530.499 JLINK_WriteReg(R0, 0x08000200)
T3A34 64578:530.506 - 0.008ms returns 0
T3A34 64578:530.512 JLINK_WriteReg(R1, 0x00000080)
T3A34 64578:530.517 - 0.007ms returns 0
T3A34 64578:530.522 JLINK_WriteReg(R2, 0x20000290)
T3A34 64578:530.527 - 0.007ms returns 0
T3A34 64578:530.533 JLINK_WriteReg(R3, 0x00000000)
T3A34 64578:530.538 - 0.007ms returns 0
T3A34 64578:530.544 JLINK_WriteReg(R4, 0x00000000)
T3A34 64578:530.548 - 0.007ms returns 0
T3A34 64578:530.554 JLINK_WriteReg(R5, 0x00000000)
T3A34 64578:530.559 - 0.007ms returns 0
T3A34 64578:530.565 JLINK_WriteReg(R6, 0x00000000)
T3A34 64578:530.570 - 0.007ms returns 0
T3A34 64578:530.576 JLINK_WriteReg(R7, 0x00000000)
T3A34 64578:530.580 - 0.007ms returns 0
T3A34 64578:530.586 JLINK_WriteReg(R8, 0x00000000)
T3A34 64578:530.591 - 0.007ms returns 0
T3A34 64578:530.597 JLINK_WriteReg(R9, 0x20000288)
T3A34 64578:530.602 - 0.007ms returns 0
T3A34 64578:530.608 JLINK_WriteReg(R10, 0x00000000)
T3A34 64578:530.613 - 0.012ms returns 0
T3A34 64578:530.623 JLINK_WriteReg(R11, 0x00000000)
T3A34 64578:530.628 - 0.007ms returns 0
T3A34 64578:530.634 JLINK_WriteReg(R12, 0x00000000)
T3A34 64578:530.639 - 0.007ms returns 0
T3A34 64578:530.645 JLINK_WriteReg(R13 (SP), 0x20000800)
T3A34 64578:530.650 - 0.007ms returns 0
T3A34 64578:530.656 JLINK_WriteReg(R14, 0x20000001)
T3A34 64578:530.661 - 0.007ms returns 0
T3A34 64578:530.667 JLINK_WriteReg(R15 (PC), 0x2000016A)
T3A34 64578:530.672 - 0.007ms returns 0
T3A34 64578:530.677 JLINK_WriteReg(XPSR, 0x01000000)
T3A34 64578:530.682 - 0.007ms returns 0
T3A34 64578:530.688 JLINK_WriteReg(MSP, 0x20000800)
T3A34 64578:530.693 - 0.007ms returns 0
T3A34 64578:530.699 JLINK_WriteReg(PSP, 0x20000800)
T3A34 64578:530.704 - 0.007ms returns 0
T3A34 64578:530.710 JLINK_WriteReg(CFBP, 0x00000000)
T3A34 64578:530.714 - 0.007ms returns 0
T3A34 64578:530.720 JLINK_SetBPEx(Addr = 0x20000000, Type = 0xFFFFFFF2)
T3A34 64578:530.726 - 0.008ms returns 0x0000000A
T3A34 64578:530.732 JLINK_Go()
T3A34 64578:530.741   CPU_ReadMem(4 bytes @ 0xE0001000)
T3A34 64578:533.478 - 2.750ms
T3A34 64578:533.487 JLINK_IsHalted()
T3A34 64578:534.693 - 1.209ms returns FALSE
T3A34 64578:534.701 JLINK_HasError()
T3A34 64578:536.026 JLINK_IsHalted()
T3A34 64578:538.419   CPU_ReadMem(2 bytes @ 0x20000000)
T3A34 64578:538.976 - 2.957ms returns TRUE
T3A34 64578:538.989 JLINK_ReadReg(R15 (PC))
T3A34 64578:538.994 - 0.007ms returns 0x20000000
T3A34 64578:538.999 JLINK_ClrBPEx(BPHandle = 0x0000000A)
T3A34 64578:539.003 - 0.005ms returns 0x00
T3A34 64578:539.007 JLINK_ReadReg(R0)
T3A34 64578:539.011 - 0.005ms returns 0x00000000
T3A34 64578:539.346 JLINK_WriteMem(0x20000290, 0x80 Bytes, ...)
T3A34 64578:539.354   Data:  B9 FB 00 28 01 D1 01 20 70 BD 00 20 FC E7 00 00 ...
T3A34 64578:539.364   CPU_WriteMem(128 bytes @ 0x20000290)
T3A34 64578:540.784 - 1.447ms returns 0x80
T3A34 64578:540.799 JLINK_HasError()
T3A34 64578:540.804 JLINK_WriteReg(R0, 0x08000280)
T3A34 64578:540.810 - 0.007ms returns 0
T3A34 64578:540.814 JLINK_WriteReg(R1, 0x00000080)
T3A34 64578:540.817 - 0.005ms returns 0
T3A34 64578:540.821 JLINK_WriteReg(R2, 0x20000290)
T3A34 64578:540.825 - 0.005ms returns 0
T3A34 64578:540.838 JLINK_WriteReg(R3, 0x00000000)
T3A34 64578:540.851 - 0.014ms returns 0
T3A34 64578:540.855 JLINK_WriteReg(R4, 0x00000000)
T3A34 64578:540.859 - 0.005ms returns 0
T3A34 64578:540.863 JLINK_WriteReg(R5, 0x00000000)
T3A34 64578:540.866 - 0.005ms returns 0
T3A34 64578:540.870 JLINK_WriteReg(R6, 0x00000000)
T3A34 64578:540.874 - 0.005ms returns 0
T3A34 64578:540.878 JLINK_WriteReg(R7, 0x00000000)
T3A34 64578:540.881 - 0.005ms returns 0
T3A34 64578:540.885 JLINK_WriteReg(R8, 0x00000000)
T3A34 64578:540.889 - 0.005ms returns 0
T3A34 64578:540.893 JLINK_WriteReg(R9, 0x20000288)
T3A34 64578:540.896 - 0.005ms returns 0
T3A34 64578:540.900 JLINK_WriteReg(R10, 0x00000000)
T3A34 64578:540.903 - 0.005ms returns 0
T3A34 64578:540.909 JLINK_WriteReg(R11, 0x00000000)
T3A34 64578:540.916 - 0.009ms returns 0
T3A34 64578:540.921 JLINK_WriteReg(R12, 0x00000000)
T3A34 64578:540.924 - 0.004ms returns 0
T3A34 64578:540.928 JLINK_WriteReg(R13 (SP), 0x20000800)
T3A34 64578:540.932 - 0.005ms returns 0
T3A34 64578:540.936 JLINK_WriteReg(R14, 0x20000001)
T3A34 64578:540.939 - 0.004ms returns 0
T3A34 64578:540.943 JLINK_WriteReg(R15 (PC), 0x2000016A)
T3A34 64578:540.946 - 0.005ms returns 0
T3A34 64578:540.950 JLINK_WriteReg(XPSR, 0x01000000)
T3A34 64578:540.954 - 0.005ms returns 0
T3A34 64578:540.957 JLINK_WriteReg(MSP, 0x20000800)
T3A34 64578:540.961 - 0.004ms returns 0
T3A34 64578:540.964 JLINK_WriteReg(PSP, 0x20000800)
T3A34 64578:540.968 - 0.004ms returns 0
T3A34 64578:540.971 JLINK_WriteReg(CFBP, 0x00000000)
T3A34 64578:540.975 - 0.004ms returns 0
T3A34 64578:540.979 JLINK_SetBPEx(Addr = 0x20000000, Type = 0xFFFFFFF2)
T3A34 64578:540.983 - 0.006ms returns 0x0000000B
T3A34 64578:540.987 JLINK_Go()
T3A34 64578:540.995   CPU_ReadMem(4 bytes @ 0xE0001000)
T3A34 64578:543.954 - 2.973ms
T3A34 64578:543.969 JLINK_IsHalted()
T3A34 64578:545.113 - 1.159ms returns FALSE
T3A34 64578:545.136 JLINK_HasError()
T3A34 64578:546.709 JLINK_IsHalted()
T3A34 64578:549.160   CPU_ReadMem(2 bytes @ 0x20000000)
T3A34 64578:549.648 - 2.945ms returns TRUE
T3A34 64578:549.662 JLINK_ReadReg(R15 (PC))
T3A34 64578:549.668 - 0.007ms returns 0x20000000
T3A34 64578:549.673 JLINK_ClrBPEx(BPHandle = 0x0000000B)
T3A34 64578:549.677 - 0.006ms returns 0x00
T3A34 64578:549.686 JLINK_ReadReg(R0)
T3A34 64578:549.690 - 0.006ms returns 0x00000000
T3A34 64578:550.231 JLINK_WriteMem(0x20000290, 0x80 Bytes, ...)
T3A34 64578:550.244   Data:  10 4E 76 69 01 27 3E 43 0E 4F 7E 61 00 BF EF F3 ...
T3A34 64578:550.259   CPU_WriteMem(128 bytes @ 0x20000290)
T3A34 64578:551.472 - 1.304ms returns 0x80
T3A34 64578:551.561 JLINK_HasError()
T3A34 64578:551.566 JLINK_WriteReg(R0, 0x08000300)
T3A34 64578:551.570 - 0.006ms returns 0
T3A34 64578:551.574 JLINK_WriteReg(R1, 0x00000080)
T3A34 64578:551.578 - 0.004ms returns 0
T3A34 64578:551.581 JLINK_WriteReg(R2, 0x20000290)
T3A34 64578:551.585 - 0.004ms returns 0
T3A34 64578:551.588 JLINK_WriteReg(R3, 0x00000000)
T3A34 64578:551.592 - 0.004ms returns 0
T3A34 64578:551.595 JLINK_WriteReg(R4, 0x00000000)
T3A34 64578:551.599 - 0.005ms returns 0
T3A34 64578:551.603 JLINK_WriteReg(R5, 0x00000000)
T3A34 64578:551.606 - 0.004ms returns 0
T3A34 64578:551.610 JLINK_WriteReg(R6, 0x00000000)
T3A34 64578:551.613 - 0.004ms returns 0
T3A34 64578:551.617 JLINK_WriteReg(R7, 0x00000000)
T3A34 64578:551.620 - 0.004ms returns 0
T3A34 64578:551.624 JLINK_WriteReg(R8, 0x00000000)
T3A34 64578:551.627 - 0.004ms returns 0
T3A34 64578:551.631 JLINK_WriteReg(R9, 0x20000288)
T3A34 64578:551.634 - 0.005ms returns 0
T3A34 64578:551.638 JLINK_WriteReg(R10, 0x00000000)
T3A34 64578:551.641 - 0.004ms returns 0
T3A34 64578:551.645 JLINK_WriteReg(R11, 0x00000000)
T3A34 64578:551.648 - 0.004ms returns 0
T3A34 64578:551.652 JLINK_WriteReg(R12, 0x00000000)
T3A34 64578:551.655 - 0.004ms returns 0
T3A34 64578:551.659 JLINK_WriteReg(R13 (SP), 0x20000800)
T3A34 64578:551.663 - 0.005ms returns 0
T3A34 64578:551.666 JLINK_WriteReg(R14, 0x20000001)
T3A34 64578:551.670 - 0.004ms returns 0
T3A34 64578:551.673 JLINK_WriteReg(R15 (PC), 0x2000016A)
T3A34 64578:551.677 - 0.004ms returns 0
T3A34 64578:551.681 JLINK_WriteReg(XPSR, 0x01000000)
T3A34 64578:551.684 - 0.004ms returns 0
T3A34 64578:551.688 JLINK_WriteReg(MSP, 0x20000800)
T3A34 64578:551.691 - 0.005ms returns 0
T3A34 64578:551.695 JLINK_WriteReg(PSP, 0x20000800)
T3A34 64578:551.698 - 0.004ms returns 0
T3A34 64578:551.702 JLINK_WriteReg(CFBP, 0x00000000)
T3A34 64578:551.705 - 0.004ms returns 0
T3A34 64578:551.709 JLINK_SetBPEx(Addr = 0x20000000, Type = 0xFFFFFFF2)
T3A34 64578:551.713 - 0.005ms returns 0x0000000C
T3A34 64578:551.717 JLINK_Go()
T3A34 64578:551.724   CPU_ReadMem(4 bytes @ 0xE0001000)
T3A34 64578:554.711 - 3.000ms
T3A34 64578:554.722 JLINK_IsHalted()
T3A34 64578:555.867 - 1.149ms returns FALSE
T3A34 64578:555.880 JLINK_HasError()
T3A34 64578:558.469 JLINK_IsHalted()
T3A34 64578:560.772   CPU_ReadMem(2 bytes @ 0x20000000)
T3A34 64578:561.235 - 2.768ms returns TRUE
T3A34 64578:561.242 JLINK_ReadReg(R15 (PC))
T3A34 64578:561.247 - 0.007ms returns 0x20000000
T3A34 64578:561.252 JLINK_ClrBPEx(BPHandle = 0x0000000C)
T3A34 64578:561.256 - 0.005ms returns 0x00
T3A34 64578:561.260 JLINK_ReadReg(R0)
T3A34 64578:561.264 - 0.005ms returns 0x00000000
T3A34 64578:561.591 JLINK_WriteMem(0x20000290, 0x80 Bytes, ...)
T3A34 64578:561.599   Data:  08 40 00 0C 00 28 F1 D1 03 48 02 49 08 61 00 20 ...
T3A34 64578:561.627   CPU_WriteMem(128 bytes @ 0x20000290)
T3A34 64578:562.723 - 1.159ms returns 0x80
T3A34 64578:562.779 JLINK_HasError()
T3A34 64578:562.783 JLINK_WriteReg(R0, 0x08000380)
T3A34 64578:562.789 - 0.007ms returns 0
T3A34 64578:562.796 JLINK_WriteReg(R1, 0x00000080)
T3A34 64578:562.800 - 0.005ms returns 0
T3A34 64578:562.804 JLINK_WriteReg(R2, 0x20000290)
T3A34 64578:562.808 - 0.005ms returns 0
T3A34 64578:562.812 JLINK_WriteReg(R3, 0x00000000)
T3A34 64578:562.819 - 0.008ms returns 0
T3A34 64578:562.823 JLINK_WriteReg(R4, 0x00000000)
T3A34 64578:562.826 - 0.005ms returns 0
T3A34 64578:562.831 JLINK_WriteReg(R5, 0x00000000)
T3A34 64578:562.834 - 0.005ms returns 0
T3A34 64578:562.838 JLINK_WriteReg(R6, 0x00000000)
T3A34 64578:562.842 - 0.005ms returns 0
T3A34 64578:562.846 JLINK_WriteReg(R7, 0x00000000)
T3A34 64578:562.849 - 0.005ms returns 0
T3A34 64578:562.854 JLINK_WriteReg(R8, 0x00000000)
T3A34 64578:562.857 - 0.005ms returns 0
T3A34 64578:562.861 JLINK_WriteReg(R9, 0x20000288)
T3A34 64578:562.865 - 0.005ms returns 0
T3A34 64578:562.869 JLINK_WriteReg(R10, 0x00000000)
T3A34 64578:562.872 - 0.005ms returns 0
T3A34 64578:562.877 JLINK_WriteReg(R11, 0x00000000)
